time	V(vdrain)	V(vgate)	Id(M1)
0.000000000000000e+00	5.085389e+01	4.323027e-01	-8.990308e-07
9.000000000358548e-10	5.085389e+01	4.322986e-01	-8.990493e-07
1.000000000015745e-09	5.085389e+01	4.323560e-01	-7.230012e-06
1.028067439718446e-09	5.085389e+01	4.324824e-01	-2.236897e-05
1.043758085116000e-09	5.085389e+01	4.326623e-01	-4.626067e-05
1.058686537633129e-09	5.085389e+01	4.329239e-01	-8.398599e-05
1.070143095015588e-09	5.085389e+01	4.331758e-01	-1.220087e-04
1.077086885230717e-09	5.085389e+01	4.333564e-01	-1.499388e-04
1.086112419565379e-09	5.085389e+01	4.336282e-01	-1.926683e-04
1.099999999995636e-09	5.085389e+01	4.341026e-01	-2.695774e-04
1.123673997870545e-09	5.085390e+01	4.349783e-01	-4.177940e-04
1.148706144690325e-09	5.085391e+01	4.359438e-01	-5.854105e-04
1.182073514050495e-09	5.085392e+01	4.372747e-01	-8.149622e-04
1.248808252770836e-09	5.085393e+01	4.400135e-01	-1.270356e-03
1.382277730265728e-09	5.085397e+01	4.454954e-01	-2.112612e-03
1.649216685255511e-09	5.085402e+01	4.559458e-01	-3.515567e-03
1.923397431450626e-09	5.085406e+01	4.656845e-01	-4.571380e-03
2.194092586164497e-09	5.085408e+01	4.742414e-01	-5.247034e-03
2.478947450361858e-09	5.085410e+01	4.824340e-01	-5.689507e-03
2.757901506017339e-09	5.085411e+01	4.899267e-01	-5.947293e-03
3.217471477993169e-09	5.085412e+01	5.016915e-01	-6.177033e-03
3.812737543111393e-09	5.085413e+01	5.164671e-01	-6.319160e-03
4.476239744209513e-09	5.085413e+01	5.326072e-01	-6.373854e-03
5.166063936660678e-09	5.085413e+01	5.491917e-01	-6.380110e-03
6.166063936676423e-09	5.085413e+01	5.732243e-01	-6.383430e-03
7.166063936692169e-09	5.085414e+01	6.000092e-01	-6.759276e-03
8.166063936707914e-09	5.085421e+01	6.376642e-01	-8.432086e-03
9.166063936723659e-09	5.085435e+01	6.940560e-01	-1.195077e-02
9.943671252881075e-09	5.085450e+01	7.545567e-01	-1.574333e-02
1.080879623397433e-08	5.085468e+01	8.387034e-01	-2.031582e-02
1.180879623399007e-08	5.085489e+01	9.519819e-01	-2.531497e-02
1.280879623400582e-08	5.085509e+01	1.079534e+00	-2.977958e-02
1.380879623402156e-08	5.085526e+01	1.219952e+00	-3.370022e-02
1.480879623403731e-08	5.085542e+01	1.371702e+00	-3.714838e-02
1.580879623405305e-08	5.085557e+01	1.533357e+00	-4.017322e-02
1.680879623406880e-08	5.085571e+01	1.703558e+00	-4.280725e-02
1.780879623408454e-08	5.085583e+01	1.881033e+00	-4.507849e-02
1.880879623410029e-08	5.085594e+01	2.064624e+00	-4.701568e-02
1.980879623411603e-08	5.085604e+01	2.253281e+00	-4.864767e-02
2.080879623413178e-08	5.085614e+01	2.446055e+00	-5.000225e-02
2.180879623414752e-08	5.085622e+01	2.642091e+00	-5.110556e-02
2.280879623416327e-08	5.085629e+01	2.840618e+00	-5.198194e-02
2.380879623417901e-08	5.085635e+01	3.040944e+00	-5.265389e-02
2.480879623419476e-08	5.085641e+01	3.242450e+00	-5.314215e-02
2.580879623421050e-08	5.085646e+01	3.444581e+00	-5.346569e-02
2.680879623422625e-08	5.085651e+01	3.646844e+00	-5.364042e-02
2.780879623424199e-08	5.085654e+01	3.848796e+00	-5.360321e-02
2.880879623425774e-08	5.085647e+01	4.049928e+00	-5.068968e-02
2.980879623427348e-08	5.085522e+01	4.248678e+00	-1.776228e-02
3.080879623428923e-08	5.084980e+01	4.441327e+00	1.211924e-01
3.180879623430498e-08	5.083707e+01	4.624091e+00	4.439897e-01
3.280879623432072e-08	5.081634e+01	4.796165e+00	9.625360e-01
3.380879623433647e-08	5.078870e+01	4.958830e+00	1.643210e+00
3.480879623435221e-08	5.075519e+01	5.113380e+00	2.452652e+00
3.580879623436796e-08	5.071650e+01	5.260731e+00	3.365684e+00
3.680879623438370e-08	5.067303e+01	5.401515e+00	4.362162e+00
3.780879623439945e-08	5.062482e+01	5.536129e+00	5.424575e+00
3.880879623441519e-08	5.057138e+01	5.664663e+00	6.535679e+00
3.980879623443094e-08	5.051080e+01	5.786552e+00	7.673370e+00
4.080879623444668e-08	5.043367e+01	5.897882e+00	8.778348e+00
4.180879623446243e-08	5.029002e+01	5.977384e+00	9.561822e+00
4.213410894639801e-08	4.954350e+01	5.694873e+00	5.619458e+00
4.224286271513810e-08	4.873873e+01	5.331422e+00	2.763203e+00
4.235037299278252e-08	4.794931e+01	4.948714e+00	1.580333e+00
4.237629716791549e-08	4.787082e+01	4.914358e+00	1.278413e+00
4.240439892012329e-08	4.783003e+01	4.898747e+00	1.143695e+00
4.242287228998403e-08	4.780857e+01	4.889129e+00	1.174289e+00
4.244305548418417e-08	4.778722e+01	4.881574e+00	1.069833e+00
4.246467750942647e-08	4.776805e+01	4.874073e+00	1.100360e+00
4.249008378291990e-08	4.774813e+01	4.867190e+00	1.069561e+00
4.252925356540904e-08	4.772225e+01	4.858974e+00	1.072018e+00
4.258566909867830e-08	4.769147e+01	4.850920e+00	1.058345e+00
4.269007669528745e-08	4.764534e+01	4.842303e+00	1.052874e+00
4.284611964002058e-08	4.758738e+01	4.836517e+00	1.046870e+00
4.315820552948683e-08	4.748250e+01	4.833418e+00	1.045137e+00
4.351527647299212e-08	4.736568e+01	4.834048e+00	1.044287e+00
4.404200390571277e-08	4.719310e+01	4.837040e+00	1.044197e+00
4.485428526854445e-08	4.692415e+01	4.840842e+00	1.043552e+00
4.585428526856020e-08	4.659010e+01	4.843355e+00	1.042873e+00
4.685428526857594e-08	4.625449e+01	4.844522e+00	1.042100e+00
4.785428526859169e-08	4.591830e+01	4.845358e+00	1.041374e+00
4.885428526860743e-08	4.558181e+01	4.846219e+00	1.040702e+00
4.985428526862318e-08	4.524500e+01	4.847107e+00	1.040094e+00
5.085428526863892e-08	4.490789e+01	4.847987e+00	1.039524e+00
5.185428526865467e-08	4.457050e+01	4.848843e+00	1.039000e+00
5.285428526867041e-08	4.423286e+01	4.849674e+00	1.038504e+00
5.385428526868616e-08	4.389502e+01	4.850484e+00	1.038046e+00
5.485428526870190e-08	4.355701e+01	4.851275e+00	1.037609e+00
5.585428526871765e-08	4.321886e+01	4.852051e+00	1.037204e+00
5.685428526873339e-08	4.288060e+01	4.852814e+00	1.036816e+00
5.785428526874914e-08	4.254226e+01	4.853564e+00	1.036453e+00
5.885428526876488e-08	4.220385e+01	4.854304e+00	1.036106e+00
5.985428526878063e-08	4.186540e+01	4.855036e+00	1.035781e+00
6.085428526879638e-08	4.152693e+01	4.855760e+00	1.035467e+00
6.185428526881212e-08	4.118845e+01	4.856477e+00	1.035173e+00
6.285428526882787e-08	4.084998e+01	4.857189e+00	1.034889e+00
6.385428526884361e-08	4.051152e+01	4.857897e+00	1.034622e+00
6.485428526885936e-08	4.017310e+01	4.858601e+00	1.034364e+00
6.585428526887510e-08	3.983473e+01	4.859302e+00	1.034120e+00
6.685428526889085e-08	3.949641e+01	4.860001e+00	1.033885e+00
6.785428526890659e-08	3.915816e+01	4.860699e+00	1.033662e+00
6.885428526892234e-08	3.881998e+01	4.861395e+00	1.033446e+00
6.985428526893808e-08	3.848188e+01	4.862092e+00	1.033242e+00
7.085428526895383e-08	3.814388e+01	4.862788e+00	1.033044e+00
7.185428526896957e-08	3.780597e+01	4.863485e+00	1.032856e+00
7.285428526898532e-08	3.746816e+01	4.864182e+00	1.032674e+00
7.385428526900106e-08	3.713047e+01	4.864881e+00	1.032502e+00
7.485428526901681e-08	3.679289e+01	4.865581e+00	1.032334e+00
7.585428526903255e-08	3.645544e+01	4.866282e+00	1.032176e+00
7.685428526904830e-08	3.611811e+01	4.866985e+00	1.032021e+00
7.785428526906404e-08	3.578091e+01	4.867690e+00	1.031875e+00
7.885428526907979e-08	3.544386e+01	4.868398e+00	1.031733e+00
7.985428526909553e-08	3.510694e+01	4.869107e+00	1.031599e+00
8.085428526911128e-08	3.477016e+01	4.869819e+00	1.031468e+00
8.185428526912703e-08	3.443355e+01	4.870533e+00	1.031345e+00
8.285428526914277e-08	3.409708e+01	4.871251e+00	1.031224e+00
8.385428526915852e-08	3.376078e+01	4.871971e+00	1.031111e+00
8.485428526917426e-08	3.342464e+01	4.872694e+00	1.031000e+00
8.585428526919001e-08	3.308868e+01	4.873420e+00	1.030896e+00
8.685428526920575e-08	3.275288e+01	4.874148e+00	1.030795e+00
8.785428526922150e-08	3.241726e+01	4.874881e+00	1.030699e+00
8.985428526925299e-08	3.174657e+01	4.876354e+00	1.030519e+00
9.185428526928448e-08	3.107664e+01	4.877841e+00	1.030355e+00
9.385428526931597e-08	3.040751e+01	4.879341e+00	1.030206e+00
9.585428526934746e-08	2.973922e+01	4.880854e+00	1.030071e+00
9.885428526939469e-08	2.873844e+01	4.883150e+00	1.029893e+00
1.018542852694419e-07	2.773977e+01	4.885477e+00	1.029746e+00
1.048542852694892e-07	2.674337e+01	4.887836e+00	1.029624e+00
1.071399995552394e-07	2.598557e+01	4.889655e+00	1.029550e+00
1.094257138409897e-07	2.522954e+01	4.891492e+00	1.029488e+00
1.117114281267400e-07	2.447528e+01	4.893348e+00	1.029439e+00
1.139971424124903e-07	2.372279e+01	4.895223e+00	1.029403e+00
1.162828566982405e-07	2.297206e+01	4.897116e+00	1.029379e+00
1.185685709839908e-07	2.222311e+01	4.899028e+00	1.029368e+00
1.208542852697411e-07	2.147593e+01	4.900958e+00	1.029370e+00
1.242828566983665e-07	2.035724e+01	4.903896e+00	1.029396e+00
1.277114281269919e-07	1.924663e+01	4.906866e+00	1.029440e+00
1.311399995556173e-07	1.814407e+01	4.909869e+00	1.029503e+00
1.345685709842427e-07	1.704959e+01	4.912904e+00	1.029583e+00
1.379971424128682e-07	1.596316e+01	4.915972e+00	1.029682e+00
1.414257138414936e-07	1.488481e+01	4.919072e+00	1.029799e+00
1.448542852701190e-07	1.381452e+01	4.922204e+00	1.029933e+00
1.465685709844317e-07	1.328469e+01	4.923777e+00	1.030004e+00
1.482828566987444e-07	1.275981e+01	4.925342e+00	1.030073e+00
1.499971424130571e-07	1.223990e+01	4.926899e+00	1.030142e+00
1.517114281273698e-07	1.172494e+01	4.928447e+00	1.030210e+00
1.534257138416825e-07	1.121495e+01	4.929987e+00	1.030277e+00
1.551399995559952e-07	1.070992e+01	4.931519e+00	1.030344e+00
1.568542852703079e-07	1.020984e+01	4.933043e+00	1.030409e+00
1.588542852703394e-07	9.637499e+00	4.934775e+00	1.030476e+00
1.608542852703709e-07	9.076850e+00	4.936455e+00	1.030531e+00
1.628542852704024e-07	8.529951e+00	4.938064e+00	1.030572e+00
1.638542852704181e-07	8.262430e+00	4.938834e+00	1.030585e+00
1.648542852704339e-07	7.999342e+00	4.939577e+00	1.030591e+00
1.658542852704496e-07	7.741097e+00	4.940288e+00	1.030592e+00
1.668542852704654e-07	7.488150e+00	4.940962e+00	1.030585e+00
1.678542852704811e-07	7.240996e+00	4.941595e+00	1.030569e+00
1.698542852705126e-07	6.766277e+00	4.942715e+00	1.030510e+00
1.718542852705441e-07	6.321685e+00	4.943605e+00	1.030409e+00
1.728542852705598e-07	6.112233e+00	4.943955e+00	1.030344e+00
1.738542852705756e-07	5.912108e+00	4.944241e+00	1.030270e+00
1.748542852705913e-07	5.721774e+00	4.944464e+00	1.030191e+00
1.758542852706071e-07	5.541530e+00	4.944633e+00	1.030110e+00
1.768542852706228e-07	5.371459e+00	4.944760e+00	1.030031e+00
1.778542852706386e-07	5.211383e+00	4.944859e+00	1.029961e+00
1.788542852706543e-07	5.060851e+00	4.944946e+00	1.029904e+00
1.798542852706701e-07	4.919165e+00	4.945038e+00	1.029865e+00
1.808542852706858e-07	4.785447e+00	4.945147e+00	1.029846e+00
1.818542852707015e-07	4.658732e+00	4.945281e+00	1.029849e+00
1.828542852707173e-07	4.538048e+00	4.945442e+00	1.029871e+00
1.838542852707330e-07	4.422483e+00	4.945632e+00	1.029912e+00
1.848542852707488e-07	4.311224e+00	4.945848e+00	1.029968e+00
1.858542852707645e-07	4.203562e+00	4.946086e+00	1.030039e+00
1.868542852707803e-07	4.098897e+00	4.946345e+00	1.030120e+00
1.878542852707960e-07	3.996723e+00	4.946623e+00	1.030212e+00
1.888542852708118e-07	3.896619e+00	4.946916e+00	1.030312e+00
1.898542852708275e-07	3.798234e+00	4.947221e+00	1.030419e+00
1.918542852708590e-07	3.605510e+00	4.947865e+00	1.030649e+00
1.938542852708905e-07	3.416770e+00	4.948544e+00	1.030895e+00
1.954257138423438e-07	3.270991e+00	4.949099e+00	1.031098e+00
1.969971424137971e-07	3.125903e+00	4.949666e+00	1.031306e+00
1.985685709852504e-07	2.981505e+00	4.950244e+00	1.031516e+00
2.001399995567038e-07	2.837798e+00	4.950833e+00	1.031730e+00
2.017114281281571e-07	2.694782e+00	4.951434e+00	1.031948e+00
2.032828566996104e-07	2.552455e+00	4.952045e+00	1.032169e+00
2.048542852710637e-07	2.410820e+00	4.952668e+00	1.032393e+00
2.069971424139546e-07	2.217635e+00	4.953524e+00	1.032700e+00
2.091399995568454e-07	2.024633e+00	4.954407e+00	1.033010e+00
2.112828566997363e-07	1.831816e+00	4.955319e+00	1.033322e+00
2.134257138426272e-07	1.639183e+00	4.956259e+00	1.033636e+00
2.155685709855181e-07	1.446734e+00	4.957227e+00	1.033952e+00
2.177114281284090e-07	1.254468e+00	4.958223e+00	1.034270e+00
2.198542852712999e-07	1.062387e+00	4.959248e+00	1.034591e+00
2.218542852713314e-07	8.831404e-01	4.960259e+00	1.034892e+00
2.228542852713471e-07	7.938092e-01	4.960997e+00	1.035033e+00
2.238542852713628e-07	7.072419e-01	4.964046e+00	1.035090e+00
2.248542852713786e-07	6.287155e-01	4.973761e+00	1.035030e+00
2.258542852713943e-07	5.617046e-01	4.992919e+00	1.034955e+00
2.268542852714101e-07	5.056548e-01	5.020978e+00	1.034919e+00
2.278542852714258e-07	4.587904e-01	5.056417e+00	1.034913e+00
2.288542852714416e-07	4.195467e-01	5.097894e+00	1.034936e+00
2.298542852714573e-07	3.865213e-01	5.144217e+00	1.034985e+00
2.308542852714731e-07	3.585576e-01	5.194406e+00	1.035053e+00
2.318542852714888e-07	3.347079e-01	5.247652e+00	1.035138e+00
2.328542852715046e-07	3.142156e-01	5.303311e+00	1.035235e+00
2.338542852715203e-07	2.964762e-01	5.360868e+00	1.035343e+00
2.348542852715360e-07	2.810094e-01	5.419909e+00	1.035459e+00
2.358542852715518e-07	2.674320e-01	5.480106e+00	1.035582e+00
2.368542852715675e-07	2.554368e-01	5.541193e+00	1.035710e+00
2.378542852715833e-07	2.447760e-01	5.602954e+00	1.035842e+00
2.388542852715990e-07	2.352488e-01	5.665216e+00	1.035978e+00
2.398542852716148e-07	2.266909e-01	5.727835e+00	1.036116e+00
2.408542852716305e-07	2.189671e-01	5.790692e+00	1.036257e+00
2.418542852716463e-07	2.119655e-01	5.853690e+00	1.036400e+00
2.428542852716620e-07	2.055927e-01	5.916747e+00	1.036545e+00
2.438542852716778e-07	1.997703e-01	5.979793e+00	1.036690e+00
2.448542852716935e-07	1.944320e-01	6.042771e+00	1.036837e+00
2.458542852717092e-07	1.895216e-01	6.105632e+00	1.036986e+00
2.468542852717250e-07	1.849911e-01	6.168334e+00	1.037134e+00
2.478542852717407e-07	1.807991e-01	6.230842e+00	1.037284e+00
2.488542852717565e-07	1.769101e-01	6.293123e+00	1.037434e+00
2.498542852717722e-07	1.732931e-01	6.355154e+00	1.037585e+00
2.508542852717880e-07	1.699214e-01	6.416910e+00	1.037736e+00
2.518542852718037e-07	1.667713e-01	6.478374e+00	1.037888e+00
2.528542852718195e-07	1.638223e-01	6.539527e+00	1.038040e+00
2.538542852718352e-07	1.610560e-01	6.600356e+00	1.038193e+00
2.548542852718510e-07	1.584565e-01	6.660849e+00	1.038346e+00
2.558542852718667e-07	1.560094e-01	6.720994e+00	1.038499e+00
2.568542852718824e-07	1.537020e-01	6.780782e+00	1.038652e+00
2.578542852718982e-07	1.515230e-01	6.840207e+00	1.038805e+00
2.588542852719139e-07	1.494621e-01	6.899260e+00	1.038959e+00
2.598542852719297e-07	1.475103e-01	6.957937e+00	1.039113e+00
2.608542852719454e-07	1.456592e-01	7.016232e+00	1.039266e+00
2.618542852719612e-07	1.439015e-01	7.074142e+00	1.039420e+00
2.628542852719769e-07	1.422304e-01	7.131663e+00	1.039575e+00
2.638542852719927e-07	1.406398e-01	7.188793e+00	1.039729e+00
2.648542852720084e-07	1.391242e-01	7.245529e+00	1.039883e+00
2.658542852720241e-07	1.376786e-01	7.301870e+00	1.040038e+00
2.668542852720399e-07	1.362982e-01	7.357815e+00	1.040192e+00
2.678542852720556e-07	1.349789e-01	7.413363e+00	1.040347e+00
2.688542852720714e-07	1.337169e-01	7.468513e+00	1.040501e+00
2.698542852720871e-07	1.325085e-01	7.523264e+00	1.040656e+00
2.708542852721029e-07	1.313504e-01	7.577619e+00	1.040811e+00
2.718542852721186e-07	1.302398e-01	7.631576e+00	1.040966e+00
2.728542852721344e-07	1.291738e-01	7.685135e+00	1.041121e+00
2.738542852721501e-07	1.281499e-01	7.738299e+00	1.041276e+00
2.748542852721659e-07	1.271656e-01	7.791068e+00	1.041431e+00
2.758542852721816e-07	1.262188e-01	7.843442e+00	1.041586e+00
2.768542852721973e-07	1.253075e-01	7.895424e+00	1.041741e+00
2.778542852722131e-07	1.244296e-01	7.947015e+00	1.041896e+00
2.788542852722288e-07	1.235836e-01	7.998216e+00	1.042051e+00
2.798542852722446e-07	1.227677e-01	8.049028e+00	1.042206e+00
2.808542852722603e-07	1.219804e-01	8.099454e+00	1.042361e+00
2.818542852722761e-07	1.212203e-01	8.149495e+00	1.042516e+00
2.828542852722918e-07	1.204860e-01	8.199154e+00	1.042671e+00
2.838542852723076e-07	1.197764e-01	8.248430e+00	1.042826e+00
2.848542852723233e-07	1.190901e-01	8.297329e+00	1.042982e+00
2.858542852723391e-07	1.184261e-01	8.345850e+00	1.043137e+00
2.868542852723548e-07	1.177834e-01	8.393996e+00	1.043292e+00
2.878542852723705e-07	1.171611e-01	8.441771e+00	1.043447e+00
2.888542852723863e-07	1.165581e-01	8.489174e+00	1.043602e+00
2.898542852724020e-07	1.159737e-01	8.536209e+00	1.043758e+00
2.908542852724178e-07	1.154070e-01	8.582878e+00	1.043913e+00
2.918542852724335e-07	1.148572e-01	8.629184e+00	1.044068e+00
2.928542852724493e-07	1.143238e-01	8.675127e+00	1.044223e+00
2.938542852724650e-07	1.138059e-01	8.720713e+00	1.044379e+00
2.948542852724808e-07	1.133029e-01	8.765941e+00	1.044534e+00
2.958542852724965e-07	1.128143e-01	8.810814e+00	1.044689e+00
2.968542852725123e-07	1.123394e-01	8.855335e+00	1.044844e+00
2.978542852725280e-07	1.118777e-01	8.899507e+00	1.045000e+00
2.988542852725437e-07	1.114287e-01	8.943331e+00	1.045155e+00
2.998542852725595e-07	1.109919e-01	8.986811e+00	1.045310e+00
3.008542852725752e-07	1.105669e-01	9.029947e+00	1.045465e+00
3.018542852725910e-07	1.101531e-01	9.072743e+00	1.045621e+00
3.028542852726067e-07	1.097502e-01	9.115202e+00	1.045776e+00
3.038542852726225e-07	1.093577e-01	9.157326e+00	1.045931e+00
3.048542852726382e-07	1.089754e-01	9.199116e+00	1.046087e+00
3.058542852726540e-07	1.086028e-01	9.240576e+00	1.046242e+00
3.068542852726697e-07	1.082395e-01	9.281707e+00	1.046397e+00
3.078542852726854e-07	1.078854e-01	9.322512e+00	1.046552e+00
3.088542852727012e-07	1.075399e-01	9.362993e+00	1.046708e+00
3.098542852727169e-07	1.072030e-01	9.403154e+00	1.046863e+00
3.108542852727327e-07	1.068741e-01	9.442996e+00	1.047018e+00
3.118542852727484e-07	1.065532e-01	9.482521e+00	1.047173e+00
3.128542852727642e-07	1.062399e-01	9.521732e+00	1.047329e+00
3.138542852727799e-07	1.059339e-01	9.560632e+00	1.047484e+00
3.148542852727957e-07	1.056351e-01	9.599222e+00	1.047639e+00
3.158542852728114e-07	1.053432e-01	9.637505e+00	1.047794e+00
3.168542852728272e-07	1.050579e-01	9.675482e+00	1.047950e+00
3.178542852728429e-07	1.047792e-01	9.713158e+00	1.048105e+00
3.188542852728586e-07	1.045067e-01	9.750532e+00	1.048260e+00
3.198542852728744e-07	1.042403e-01	9.787610e+00	1.048415e+00
3.208542852728901e-07	1.039798e-01	9.824391e+00	1.048570e+00
3.218542852729059e-07	1.037251e-01	9.860880e+00	1.048726e+00
3.228542852729216e-07	1.034758e-01	9.897076e+00	1.048881e+00
3.238542852729374e-07	1.032320e-01	9.932983e+00	1.049036e+00
3.248542852729531e-07	1.029934e-01	9.968605e+00	1.049191e+00
3.258542852729689e-07	1.027598e-01	1.000394e+01	1.049346e+00
3.268542852729846e-07	1.025312e-01	1.003899e+01	1.049501e+00
3.278542852730004e-07	1.023074e-01	1.007377e+01	1.049657e+00
3.288542852730161e-07	1.020883e-01	1.010826e+01	1.049812e+00
3.298542852730318e-07	1.018736e-01	1.014248e+01	1.049967e+00
3.308542852730476e-07	1.016634e-01	1.017643e+01	1.050122e+00
3.318542852730633e-07	1.014574e-01	1.021010e+01	1.050277e+00
3.328542852730791e-07	1.012556e-01	1.024351e+01	1.050432e+00
3.338542852730948e-07	1.010579e-01	1.027665e+01	1.050587e+00
3.348542852731106e-07	1.008641e-01	1.030952e+01	1.050742e+00
3.358542852731263e-07	1.006741e-01	1.034213e+01	1.050897e+00
3.368542852731421e-07	1.004879e-01	1.037447e+01	1.051053e+00
3.378542852731578e-07	1.003053e-01	1.040656e+01	1.051208e+00
3.388542852731736e-07	1.001263e-01	1.043839e+01	1.051363e+00
3.398542852731893e-07	9.995071e-02	1.046997e+01	1.051518e+00
3.408542852732050e-07	9.977850e-02	1.050129e+01	1.051673e+00
3.418542852732208e-07	9.960958e-02	1.053236e+01	1.051828e+00
3.428542852732365e-07	9.944386e-02	1.056318e+01	1.051983e+00
3.438542852732523e-07	9.928127e-02	1.059376e+01	1.052138e+00
3.448542852732680e-07	9.912171e-02	1.062409e+01	1.052293e+00
3.458542852732838e-07	9.896514e-02	1.065417e+01	1.052448e+00
3.468542852732995e-07	9.881147e-02	1.068402e+01	1.052603e+00
3.478542852733153e-07	9.866063e-02	1.071363e+01	1.052758e+00
3.488542852733310e-07	9.851255e-02	1.074299e+01	1.052913e+00
3.498542852733467e-07	9.836718e-02	1.077213e+01	1.053068e+00
3.508542852733625e-07	9.822443e-02	1.080102e+01	1.053223e+00
3.518542852733782e-07	9.808427e-02	1.082969e+01	1.053378e+00
3.528542852733940e-07	9.794662e-02	1.085813e+01	1.053533e+00
3.538542852734097e-07	9.781144e-02	1.088633e+01	1.053688e+00
